T0330 000:008.561   SEGGER J-Link V7.82 Log File
T0330 000:008.661   DLL Compiled: Oct 13 2022 13:32:51
T0330 000:008.669   Logging started @ 2024-12-05 16:13
T0330 000:008.676 - 8.680ms
T0330 000:008.687 JLINK_SetWarnOutHandler(...)
T0330 000:008.695 - 0.011ms
T0330 000:008.703 JLINK_OpenEx(...)
T0330 000:009.929   Firmware: J-Link V9 compiled May  7 2021 16:26:12
T0330 000:010.183   Firmware: J-Link V9 compiled May  7 2021 16:26:12
T0330 000:010.298   Decompressing FW timestamp took 90 us
T0330 000:016.678   Hardware: V9.40
T0330 000:016.704   S/N: 69404783
T0330 000:016.719   OEM: SEGGER
T0330 000:016.734   Feature(s): RDI, GDB, FlashDL, FlashBP, JFlash
T0330 000:017.656   TELNET listener socket opened on port 19021
T0330 000:017.719   WEBSRV WEBSRV_Init(): Starting webserver thread(s)
T0330 000:017.832   WEBSRV Webserver running on local port 19080
T0330 000:023.435 - 14.746ms returns "O.K."
T0330 000:023.469 JLINK_GetEmuCaps()
T0330 000:023.479 - 0.014ms returns 0xB9FF7BBF
T0330 000:023.492 JLINK_TIF_GetAvailable(...)
T0330 000:023.625 - 0.145ms
T0330 000:023.647 JLINK_SetErrorOutHandler(...)
T0330 000:023.656 - 0.013ms
T0330 000:023.679 JLINK_ExecCommand("ProjectFile = "E:\IC\HT\SDK\HS32F7D377_RELEASE_1.0.0\examples\evb_hs32f7d377\driver_examples\mcan\mcan_ex1_loopback\ARM\cpu1\JLinkSettings.ini"", ...). 
T0330 000:031.237   XML file found at: C:\Users\Administrator\AppData\Roaming\SEGGER\JLinkDevices\Watech\HS32F7D377\Devices.xml
T0330 000:031.341   C:\Users\Administrator\AppData\Roaming\SEGGER\JLinkDevices\Watech\HS32F7D377\Devices.xml evaluated successfully.
T0330 000:031.355     Device entry created:  HS32F7D377_CPU1
T0330 000:031.365       ChipInfo:
T0330 000:031.375         Vendor:          Watech
T0330 000:031.387         Name:            HS32F7D377_CPU1
T0330 000:031.398         WorkRAMAddr:     0x00200000
T0330 000:031.409         WorkRAMSize:     0x00020000
T0330 000:031.424         Core:            JLINK_CORE_CORTEX_M7
T0330 000:031.481         Script:          C:\Users\Administrator\AppData\Roaming\SEGGER\JLinkDevices\Watech\HS32F7D377\HS32F7D377_CPU1.JLinkScript
T0330 000:031.495       FlashBankInfo:
T0330 000:031.505         Name:            Internal eFlash0
T0330 000:031.516         BaseAddr:        0x00300000
T0330 000:031.527         AlwaysPresent:   1
T0330 000:031.620         LoaderInfo:
T0330 000:031.634           Name:            Default
T0330 000:031.644           MaxSize:         0x00100000
T0330 000:031.655           Loader:          C:\Users\Administrator\AppData\Roaming\SEGGER\JLinkDevices\Watech\HS32F7D377\HS32F7D377_CPU1_EFLASH0.FLM
T0330 000:031.666           LoaderType:      FLASH_ALGO_TYPE_OPEN
T0330 000:031.676       FlashBankInfo:
T0330 000:031.687         Name:            Internal eFlash1
T0330 000:031.697         BaseAddr:        0x10300000
T0330 000:031.708         AlwaysPresent:   1
T0330 000:031.794         LoaderInfo:
T0330 000:031.807           Name:            Default
T0330 000:031.818           MaxSize:         0x00100000
T0330 000:031.828           Loader:          C:\Users\Administrator\AppData\Roaming\SEGGER\JLinkDevices\Watech\HS32F7D377\HS32F7D377_CPU1_EFLASH1.FLM
T0330 000:031.839           LoaderType:      FLASH_ALGO_TYPE_OPEN
T0330 000:031.861     Device entry created:  HS32F7D377_CPU2
T0330 000:031.868       ChipInfo:
T0330 000:031.879         Vendor:          Watech
T0330 000:031.889         Name:            HS32F7D377_CPU2
T0330 000:031.900         WorkRAMAddr:     0x10200000
T0330 000:031.910         WorkRAMSize:     0x00020000
T0330 000:031.922         Core:            JLINK_CORE_CORTEX_M7
T0330 000:031.971         Script:          C:\Users\Administrator\AppData\Roaming\SEGGER\JLinkDevices\Watech\HS32F7D377\HS32F7D377_CPU2.JLinkScript
T0330 000:031.985       FlashBankInfo:
T0330 000:031.995         Name:            Internal eFlash1
T0330 000:032.006         BaseAddr:        0x10300000
T0330 000:032.017         AlwaysPresent:   1
T0330 000:032.100         LoaderInfo:
T0330 000:032.113           Name:            Default
T0330 000:032.157           MaxSize:         0x00100000
T0330 000:032.168           Loader:          C:\Users\Administrator\AppData\Roaming\SEGGER\JLinkDevices\Watech\HS32F7D377\HS32F7D377_CPU2_EFLASH1.FLM
T0330 000:032.179           LoaderType:      FLASH_ALGO_TYPE_OPEN
T0330 000:032.564   Ref file found at: E:\tool\mdk\ARM\Segger\JLinkDevices.ref
T0330 000:032.660   REF file references invalid XML file: E:\tool\jlink\JLinkDevices.xml
T0330 000:032.820 - 9.148ms returns 0x00
T0330 000:032.856 JLINK_ExecCommand("Device = HS32F7D377:CPU1", ...). 
T0330 000:033.065   Flash bank @ 0x00300000: SFL: Parsing sectorization info from ELF file
T0330 000:033.079     FlashDevice.SectorInfo[0]: .SectorSize = 0x00001000, .SectorStartAddr = 0x00000000
T0330 000:033.090   OFL: Init() present @ offset 0x00000001
T0330 000:033.101   OFL: UnInit() present @ offset 0x00000039
T0330 000:033.111   OFL: EraseSector() present @ offset 0x00000069
T0330 000:033.121   OFL: ProgramPage() present @ offset 0x00000081
T0330 000:033.132   OFL: EraseChip() present @ offset 0x00000051
T0330 000:033.142   OFL: BlankCheck() N/A
T0330 000:033.153   OFL: Verify() N/A
T0330 000:033.163   OFL: SEGGER_FL_Erase() N/A
T0330 000:033.173   OFL: SEGGER_OPEN_Erase() N/A
T0330 000:033.183   OFL: SEGGER_FL_Program() N/A
T0330 000:033.194   OFL: SEGGER_OPEN_Program() N/A
T0330 000:033.204   OFL: SEGGER_FL_Read() N/A
T0330 000:033.214   OFL: SEGGER_OPEN_Read() N/A
T0330 000:033.225   OFL: SEGGER_FL_CalcCRC() N/A
T0330 000:033.235   OFL: SEGGER_OPEN_CalcCRC() N/A
T0330 000:033.245   OFL: SEGGER_FL_Start() N/A
T0330 000:033.255   OFL: SEGGER_OPEN_Start() N/A
T0330 000:033.266   OFL: SEGGER_FL_GetFlashInfo() N/A
T0330 000:033.276   OFL: SEGGER_OPEN_GetFlashInfo() N/A
T0330 000:033.286   OFL: SEGGER_FL_Verify() N/A
T0330 000:033.296   OFL: SEGGER_FL_CheckBlank() N/A
T0330 000:033.307   OFL: SEGGER_FL_Prepare() N/A
T0330 000:033.317   OFL: SEGGER_FL_Restore() N/A
T0330 000:033.327   OFL: SEGGER_FL_EraseChip() N/A
T0330 000:033.688   Flash bank @ 0x10300000: SFL: Parsing sectorization info from ELF file
T0330 000:033.702     FlashDevice.SectorInfo[0]: .SectorSize = 0x00001000, .SectorStartAddr = 0x00000000
T0330 000:033.713   OFL: Init() present @ offset 0x00000001
T0330 000:033.724   OFL: UnInit() present @ offset 0x00000011
T0330 000:033.734   OFL: EraseSector() present @ offset 0x00000031
T0330 000:033.744   OFL: ProgramPage() present @ offset 0x00000049
T0330 000:033.754   OFL: EraseChip() present @ offset 0x00000019
T0330 000:033.765   OFL: BlankCheck() N/A
T0330 000:033.775   OFL: Verify() N/A
T0330 000:033.785   OFL: SEGGER_FL_Erase() N/A
T0330 000:033.795   OFL: SEGGER_OPEN_Erase() N/A
T0330 000:033.806   OFL: SEGGER_FL_Program() N/A
T0330 000:033.816   OFL: SEGGER_OPEN_Program() N/A
T0330 000:033.827   OFL: SEGGER_FL_Read() N/A
T0330 000:033.837   OFL: SEGGER_OPEN_Read() N/A
T0330 000:033.847   OFL: SEGGER_FL_CalcCRC() N/A
T0330 000:033.857   OFL: SEGGER_OPEN_CalcCRC() N/A
T0330 000:033.867   OFL: SEGGER_FL_Start() N/A
T0330 000:033.878   OFL: SEGGER_OPEN_Start() N/A
T0330 000:033.888   OFL: SEGGER_FL_GetFlashInfo() N/A
T0330 000:033.898   OFL: SEGGER_OPEN_GetFlashInfo() N/A
T0330 000:033.909   OFL: SEGGER_FL_Verify() N/A
T0330 000:033.919   OFL: SEGGER_FL_CheckBlank() N/A
T0330 000:033.929   OFL: SEGGER_FL_Prepare() N/A
T0330 000:033.939   OFL: SEGGER_FL_Restore() N/A
T0330 000:033.950   OFL: SEGGER_FL_EraseChip() N/A
T0330 000:034.133   Device "HS32F7D377_CPU1" selected.
T0330 000:034.308 - 1.448ms returns 0x00
T0330 000:034.322 JLINK_ExecCommand("DisableConnectionTimeout", ...). 
T0330 000:034.333 - 0.005ms returns 0x01
T0330 000:034.341 JLINK_GetHardwareVersion()
T0330 000:034.349 - 0.010ms returns 94000
T0330 000:034.359 JLINK_GetDLLVersion()
T0330 000:034.365 - 0.010ms returns 78200
T0330 000:034.373 JLINK_GetOEMString(...)
T0330 000:034.381 JLINK_GetFirmwareString(...)
T0330 000:034.388 - 0.010ms
T0330 000:034.409 JLINK_GetDLLVersion()
T0330 000:034.417 - 0.010ms returns 78200
T0330 000:034.426 JLINK_GetCompileDateTime()
T0330 000:034.434 - 0.011ms
T0330 000:034.446 JLINK_GetFirmwareString(...)
T0330 000:034.453 - 0.010ms
T0330 000:034.463 JLINK_GetHardwareVersion()
T0330 000:034.470 - 0.010ms returns 94000
T0330 000:034.481 JLINK_GetSN()
T0330 000:034.488 - 0.010ms returns 69404783
T0330 000:034.498 JLINK_GetOEMString(...)
T0330 000:034.512 JLINK_TIF_Select(JLINKARM_TIF_SWD)
T0330 000:034.963 - 0.457ms returns 0x00
T0330 000:034.975 JLINK_HasError()
T0330 000:034.989 JLINK_SetSpeed(5000)
T0330 000:035.088 - 0.103ms
T0330 000:035.098 JLINK_GetId()
T0330 000:036.800   InitTarget() start
T0330 000:036.816    J-Link Script File: Executing InitTarget()
T0330 000:036.832   J-Link script: InitTarget()
T0330 000:036.846   Select Cortex M7
T0330 000:036.862   Select AHB-AP0(CPU1)
T0330 000:036.875   InitTarget() end
T0330 000:037.347   Found SW-DP with ID 0x6BA02477
T0330 000:039.653   DPIDR: 0x6BA02477
T0330 000:039.677   CoreSight SoC-400 or earlier
T0330 000:039.696   AP map detection skipped. Manually configured AP map found.
T0330 000:039.716   AP[0]: AHB-AP (IDR: Not set)
T0330 000:039.734   AP[1]: AHB-AP (IDR: Not set)
T0330 000:039.752   AP[2]: AHB-AP (IDR: Not set)
T0330 000:040.503   AP[0]: Core found
T0330 000:040.520   AP[0]: AHB-AP ROM base: 0xE00FD000
T0330 000:040.919   CPUID register: 0x411FC272. Implementer code: 0x41 (ARM)
T0330 000:040.936   Found Cortex-M7 r1p2, Little endian.
T0330 000:041.160   -- Max. mem block: 0x00010C40
T0330 000:041.597   CPU_ReadMem(4 bytes @ 0xE000EDF0)
T0330 000:041.853   CPU_WriteMem(4 bytes @ 0xE000EDF0)
T0330 000:042.131   CPU_ReadMem(4 bytes @ 0xE0002000)
T0330 000:042.398   FPUnit: 4 code (BP) slots and 0 literal slots
T0330 000:042.411   CPU_ReadMem(4 bytes @ 0xE000EDFC)
T0330 000:042.750   CPU_WriteMem(4 bytes @ 0xE000EDFC)
T0330 000:043.020   CPU_ReadMem(4 bytes @ 0xE0001000)
T0330 000:043.283   CPU_WriteMem(4 bytes @ 0xE0001000)
T0330 000:043.558   CPU_ReadMem(4 bytes @ 0xE000ED88)
T0330 000:043.847   CPU_WriteMem(4 bytes @ 0xE000ED88)
T0330 000:044.170   CPU_ReadMem(4 bytes @ 0xE000ED88)
T0330 000:044.453   CPU_WriteMem(4 bytes @ 0xE000ED88)
T0330 000:044.804   CoreSight components:
T0330 000:044.820   ROMTbl[0] @ E00FD000
T0330 000:044.831   CPU_ReadMem(64 bytes @ 0xE00FD000)
T0330 000:045.424   CPU_ReadMem(32 bytes @ 0xE00FEFE0)
T0330 000:045.865   [0][0]: E00FE000 CID B105100D PID 000BB4C8 ROM Table
T0330 000:045.896   ROMTbl[1] @ E00FE000
T0330 000:045.912   CPU_ReadMem(64 bytes @ 0xE00FE000)
T0330 000:046.514   CPU_ReadMem(32 bytes @ 0xE00FFFE0)
T0330 000:046.952   [1][0]: E00FF000 CID B105100D PID 000BB4C7 ROM Table
T0330 000:046.976   ROMTbl[2] @ E00FF000
T0330 000:046.991   CPU_ReadMem(64 bytes @ 0xE00FF000)
T0330 000:047.587   CPU_ReadMem(32 bytes @ 0xE000EFE0)
T0330 000:048.006   [2][0]: E000E000 CID B105E00D PID 000BB00C SCS-M7
T0330 000:048.018   CPU_ReadMem(32 bytes @ 0xE0001FE0)
T0330 000:048.426   [2][1]: E0001000 CID B105E00D PID 000BB002 DWT
T0330 000:048.443   CPU_ReadMem(32 bytes @ 0xE0002FE0)
T0330 000:048.869   [2][2]: E0002000 CID B105E00D PID 000BB00E FPB-M7
T0330 000:048.887   CPU_ReadMem(32 bytes @ 0xE0000FE0)
T0330 000:049.313   [2][3]: E0000000 CID B105E00D PID 000BB001 ITM
T0330 000:049.330   CPU_ReadMem(32 bytes @ 0xE0040FE0)
T0330 000:049.822   [0][1]: E0040000 CID B105900D PID 000BB9A9 TPIU-M7
T0330 000:049.834   CPU_ReadMem(4 bytes @ 0xE000ED78)
T0330 000:050.130   Cache: No cache
T0330 000:050.314 - 15.222ms returns 0x6BA02477
T0330 000:050.332 JLINK_GetDLLVersion()
T0330 000:050.343 - 0.015ms returns 78200
T0330 000:050.356 JLINK_CORE_GetFound()
T0330 000:050.365 - 0.014ms returns 0xE0100FF
T0330 000:050.378 JLINK_GetDebugInfo(0x100 = JLINKARM_ROM_TABLE_ADDR_INDEX)
T0330 000:050.391   Value=0xE00FD000
T0330 000:050.405 - 0.031ms returns 0
T0330 000:050.449 JLINK_GetDebugInfo(0x100 = JLINKARM_ROM_TABLE_ADDR_INDEX)
T0330 000:050.460   Value=0xE00FD000
T0330 000:050.475 - 0.030ms returns 0
T0330 000:050.486 JLINK_GetDebugInfo(0x101 = JLINKARM_DEBUG_INFO_ETM_ADDR_INDEX)
T0330 000:050.498   Value=0x00000000
T0330 000:050.514 - 0.032ms returns 0
T0330 000:050.527 JLINK_ReadMemEx(0xE0041FF0, 0x10 Bytes, Flags = 0x02000004)
T0330 000:050.548   CPU_ReadMem(16 bytes @ 0xE0041FF0)
T0330 000:050.900   Data:  00 00 00 00 00 00 00 00 00 00 00 00 00 00 00 00
T0330 000:050.917 - 0.395ms returns 16 (0x10)
T0330 000:050.930 JLINK_GetDebugInfo(0x102 = JLINKARM_DEBUG_INFO_MTB_ADDR_INDEX)
T0330 000:050.941   Value=0x00000000
T0330 000:050.955 - 0.029ms returns 0
T0330 000:050.966 JLINK_GetDebugInfo(0x103 = JLINKARM_DEBUG_INFO_TPIU_ADDR_INDEX)
T0330 000:050.975   Value=0xE0040000
T0330 000:050.990 - 0.028ms returns 0
T0330 000:051.001 JLINK_GetDebugInfo(0x104 = JLINKARM_DEBUG_INFO_ITM_ADDR_INDEX)
T0330 000:051.010   Value=0xE0000000
T0330 000:051.025 - 0.028ms returns 0
T0330 000:051.035 JLINK_GetDebugInfo(0x105 = JLINKARM_DEBUG_INFO_DWT_ADDR_INDEX)
T0330 000:051.045   Value=0xE0001000
T0330 000:051.059 - 0.028ms returns 0
T0330 000:051.070 JLINK_GetDebugInfo(0x106 = JLINKARM_DEBUG_INFO_FPB_ADDR_INDEX)
T0330 000:051.080   Value=0xE0002000
T0330 000:051.094 - 0.028ms returns 0
T0330 000:051.105 JLINK_GetDebugInfo(0x107 = JLINKARM_DEBUG_INFO_NVIC_ADDR_INDEX)
T0330 000:051.115   Value=0xE000E000
T0330 000:051.129 - 0.028ms returns 0
T0330 000:051.140 JLINK_GetDebugInfo(0x10C = JLINKARM_DEBUG_INFO_DBG_ADDR_INDEX)
T0330 000:051.150   Value=0xE000EDF0
T0330 000:051.164 - 0.028ms returns 0
T0330 000:051.175 JLINK_GetDebugInfo(0x01 = Unknown)
T0330 000:051.186   Value=0x00000001
T0330 000:051.200 - 0.030ms returns 0
T0330 000:051.212 JLINK_ReadMemU32(0xE000ED00, 0x1 Items)
T0330 000:051.243   CPU_ReadMem(4 bytes @ 0xE000ED00)
T0330 000:051.519   Data:  72 C2 1F 41
T0330 000:051.531   Debug reg: CPUID
T0330 000:051.541 - 0.333ms returns 1 (0x1)
T0330 000:051.550 JLINK_GetDebugInfo(0x10F = JLINKARM_DEBUG_INFO_HAS_CORTEX_M_SECURITY_EXT_INDEX)
T0330 000:051.557   Value=0x00000000
T0330 000:051.567 - 0.020ms returns 0
T0330 000:051.575 JLINK_HasError()
T0330 000:051.583 JLINK_SetResetType(JLINKARM_CM3_RESET_TYPE_NORMAL)
T0330 000:051.590 - 0.010ms returns JLINKARM_CM3_RESET_TYPE_NORMAL
T0330 000:051.598 JLINK_Reset()
T0330 000:051.610   CPU is running
T0330 000:051.621   CPU_WriteMem(4 bytes @ 0xE000EDF0)
T0330 000:051.893   CPU is running
T0330 000:051.904   CPU_WriteMem(4 bytes @ 0xE000EDFC)
T0330 000:052.177   Reset: Halt core after reset via DEMCR.VC_CORERESET.
T0330 000:052.454   Reset: Reset device via AIRCR.SYSRESETREQ.
T0330 000:052.467   CPU is running
T0330 000:052.478   CPU_WriteMem(4 bytes @ 0xE000ED0C)
T0330 000:104.804   CPU_ReadMem(4 bytes @ 0xE000EDF0)
T0330 000:105.097   CPU_ReadMem(4 bytes @ 0xE000EDF0)
T0330 000:105.372   CPU is running
T0330 000:105.388   CPU_WriteMem(4 bytes @ 0xE000EDF0)
T0330 000:105.661   CPU is running
T0330 000:105.675   CPU_WriteMem(4 bytes @ 0xE000EDFC)
T0330 000:111.959   CPU_ReadMem(4 bytes @ 0xE000EDF0)
T0330 000:114.697   CPU_WriteMem(4 bytes @ 0xE0002000)
T0330 000:115.011   CPU_ReadMem(4 bytes @ 0xE000EDFC)
T0330 000:115.293   CPU_ReadMem(4 bytes @ 0xE0001000)
T0330 000:115.572 - 63.981ms
T0330 000:115.624 JLINK_HasError()
T0330 000:115.638 JLINK_ReadReg(R15 (PC))
T0330 000:115.653 - 0.020ms returns 0x00100374
T0330 000:115.665 JLINK_ReadReg(XPSR)
T0330 000:115.676 - 0.015ms returns 0x01000000
T0330 000:115.688 JLINK_Halt()
T0330 000:115.697 - 0.014ms returns 0x00
T0330 000:115.709 JLINK_ReadMemU32(0xE000EDF0, 0x1 Items)
T0330 000:115.723   CPU_ReadMem(4 bytes @ 0xE000EDF0)
T0330 000:116.006   Data:  03 00 03 00
T0330 000:116.023   Debug reg: DHCSR
T0330 000:116.038 - 0.334ms returns 1 (0x1)
T0330 000:116.053 JLINK_WriteU32_64(0xE000EDF0, 0xA05F0003)
T0330 000:116.065   Debug reg: DHCSR
T0330 000:116.288   CPU_WriteMem(4 bytes @ 0xE000EDF0)
T0330 000:116.579 - 0.530ms returns 0 (0x00000000)
T0330 000:116.589 JLINK_WriteU32_64(0xE000EDFC, 0x01000000)
T0330 000:116.596   Debug reg: DEMCR
T0330 000:116.609   CPU_WriteMem(4 bytes @ 0xE000EDFC)
T0330 000:116.878 - 0.334ms returns 0 (0x00000000)
T0330 000:116.953 JLINK_GetHWStatus(...)
T0330 000:117.067 - 0.118ms returns 0
T0330 000:117.090 JLINK_GetNumBPUnits(Type = 0xFFFFFF00)
T0330 000:117.098 - 0.011ms returns 0x04
T0330 000:117.106 JLINK_GetNumBPUnits(Type = 0xF0)
T0330 000:117.113 - 0.010ms returns 0x2000
T0330 000:117.121 JLINK_GetNumWPUnits()
T0330 000:117.128 - 0.010ms returns 2
T0330 000:117.143 JLINK_GetSpeed()
T0330 000:117.150 - 0.010ms returns 4000
T0330 000:117.161 JLINK_ReadMemU32(0xE000E004, 0x1 Items)
T0330 000:117.171   CPU_ReadMem(4 bytes @ 0xE000E004)
T0330 000:117.428   Data:  07 00 00 00
T0330 000:117.439 - 0.281ms returns 1 (0x1)
T0330 000:117.448 JLINK_ReadMemU32(0xE000E004, 0x1 Items)
T0330 000:117.456   CPU_ReadMem(4 bytes @ 0xE000E004)
T0330 000:117.716   Data:  07 00 00 00
T0330 000:117.728 - 0.283ms returns 1 (0x1)
T0330 000:117.736 JLINK_WriteMemEx(0xE0001000, 0x0000001C Bytes, Flags = 0x02000004)
T0330 000:117.744   Data:  01 00 00 00 00 00 00 00 00 00 00 00 00 00 00 00 ...
T0330 000:117.758   CPU_WriteMem(28 bytes @ 0xE0001000)
T0330 000:118.149 - 0.417ms returns 0x1C
T0330 000:118.165 JLINK_HasError()
T0330 000:118.174 JLINK_ReadReg(R15 (PC))
T0330 000:118.182 - 0.011ms returns 0x00100374
T0330 000:118.191 JLINK_ReadReg(XPSR)
T0330 000:118.198 - 0.010ms returns 0x01000000
T0330 000:121.639 JLINK_ReadMemEx(0xE0001004, 0x4 Bytes, Flags = 0x02000000)
T0330 000:121.656   Data:  00 00 00 00
T0330 000:121.666   Debug reg: DWT_CYCCNT
T0330 000:121.677 - 0.041ms returns 4 (0x4)
T0330 000:211.066 JLINK_HasError()
T0330 000:211.101 JLINK_SetResetType(JLINKARM_CM3_RESET_TYPE_NORMAL)
T0330 000:211.110 - 0.012ms returns JLINKARM_CM3_RESET_TYPE_NORMAL
T0330 000:211.119 JLINK_Reset()
T0330 000:211.136   CPU_WriteMem(4 bytes @ 0xE000EDF0)
T0330 000:211.463   CPU_WriteMem(4 bytes @ 0xE000EDFC)
T0330 000:211.808   Reset: Halt core after reset via DEMCR.VC_CORERESET.
T0330 000:212.100   Reset: Reset device via AIRCR.SYSRESETREQ.
T0330 000:212.114   CPU_WriteMem(4 bytes @ 0xE000ED0C)
T0330 000:264.589   CPU_ReadMem(4 bytes @ 0xE000EDF0)
T0330 000:264.865   CPU_ReadMem(4 bytes @ 0xE000EDF0)
T0330 000:265.133   CPU_WriteMem(4 bytes @ 0xE000EDF0)
T0330 000:265.404   CPU_WriteMem(4 bytes @ 0xE000EDFC)
T0330 000:271.267   CPU_ReadMem(4 bytes @ 0xE000EDF0)
T0330 000:273.987   CPU_WriteMem(4 bytes @ 0xE0002000)
T0330 000:274.281   CPU_ReadMem(4 bytes @ 0xE000EDFC)
T0330 000:274.551   CPU_ReadMem(4 bytes @ 0xE0001000)
T0330 000:274.821 - 63.709ms
T0330 000:274.885 JLINK_HasError()
T0330 000:274.900 JLINK_ReadReg(R15 (PC))
T0330 000:274.912 - 0.017ms returns 0x00100374
T0330 000:274.924 JLINK_ReadReg(XPSR)
T0330 000:274.934 - 0.015ms returns 0x01000000
T0330 000:275.025 JLINK_ReadMemEx(0x00100374, 0x3C Bytes, Flags = 0x02000000)
T0330 000:275.042   CPU_ReadMem(60 bytes @ 0x00100374)
T0330 000:275.624   Data:  18 48 01 68 4F F0 01 02 D2 01 11 42 F8 D0 4F F0 ...
T0330 000:275.635 - 0.614ms returns 60 (0x3C)
T0330 000:275.644 JLINK_ReadMemEx(0x00100374, 0x2 Bytes, Flags = 0x02000000)
T0330 000:275.653   CPU_ReadMem(2 bytes @ 0x00100374)
T0330 000:275.913   Data:  18 48
T0330 000:275.924 - 0.283ms returns 2 (0x2)
T0330 000:275.978 JLINK_ReadMemEx(0x00100376, 0x2 Bytes, Flags = 0x02000000)
T0330 000:275.987   CPU_ReadMem(2 bytes @ 0x00100376)
T0330 000:276.252   Data:  01 68
T0330 000:276.263 - 0.288ms returns 2 (0x2)
T0330 000:276.456 JLINK_ReadMemEx(0x00100376, 0x2 Bytes, Flags = 0x02000000)
T0330 000:276.467   CPU_ReadMem(2 bytes @ 0x00100376)
T0330 000:276.799   Data:  01 68
T0330 000:276.811 - 0.358ms returns 2 (0x2)
T0330 000:276.820 JLINK_ReadMemEx(0x00100378, 0x3C Bytes, Flags = 0x02000000)
T0330 000:276.828   CPU_ReadMem(60 bytes @ 0x00100378)
T0330 000:277.395   Data:  4F F0 01 02 D2 01 11 42 F8 D0 4F F0 00 00 4F F0 ...
T0330 000:277.406 - 0.589ms returns 60 (0x3C)
T0330 000:277.415 JLINK_ReadMemEx(0x00100378, 0x2 Bytes, Flags = 0x02000000)
T0330 000:277.423   CPU_ReadMem(2 bytes @ 0x00100378)
T0330 000:277.678   Data:  4F F0
T0330 000:277.689 - 0.280ms returns 2 (0x2)
T0330 000:277.714 JLINK_ReadMemEx(0x00100378, 0x3C Bytes, Flags = 0x02000000)
T0330 000:277.724   CPU_ReadMem(60 bytes @ 0x00100378)
T0330 000:278.306   Data:  4F F0 01 02 D2 01 11 42 F8 D0 4F F0 00 00 4F F0 ...
T0330 000:278.322 - 0.612ms returns 60 (0x3C)
T0330 000:278.335 JLINK_ReadMemEx(0x00100378, 0x2 Bytes, Flags = 0x02000000)
T0330 000:278.346   CPU_ReadMem(2 bytes @ 0x00100378)
T0330 000:278.620   Data:  4F F0
T0330 000:278.636 - 0.307ms returns 2 (0x2)
T0330 000:278.649 JLINK_ReadMemEx(0x0010037A, 0x2 Bytes, Flags = 0x02000000)
T0330 000:278.661   CPU_ReadMem(2 bytes @ 0x0010037A)
T0330 000:278.933   Data:  01 02
T0330 000:278.949 - 0.305ms returns 2 (0x2)
T0330 000:278.974 JLINK_ReadMemEx(0x0010037C, 0x3C Bytes, Flags = 0x02000000)
T0330 000:278.988   CPU_ReadMem(60 bytes @ 0x0010037C)
T0330 000:279.560   Data:  D2 01 11 42 F8 D0 4F F0 00 00 4F F0 00 01 4F F0 ...
T0330 000:279.572 - 0.600ms returns 60 (0x3C)
T0330 000:279.580 JLINK_ReadMemEx(0x0010037C, 0x2 Bytes, Flags = 0x02000000)
T0330 000:279.589   CPU_ReadMem(2 bytes @ 0x0010037C)
T0330 000:279.846   Data:  D2 01
T0330 000:279.857 - 0.280ms returns 2 (0x2)
T0330 000:279.866 JLINK_ReadMemEx(0x0010037E, 0x2 Bytes, Flags = 0x02000000)
T0330 000:279.874   CPU_ReadMem(2 bytes @ 0x0010037E)
T0330 000:280.123   Data:  11 42
T0330 000:280.135 - 0.272ms returns 2 (0x2)
T0330 000:280.152 JLINK_ReadMemEx(0x0010037E, 0x2 Bytes, Flags = 0x02000000)
T0330 000:280.161   CPU_ReadMem(2 bytes @ 0x0010037E)
T0330 000:280.413   Data:  11 42
T0330 000:280.424 - 0.276ms returns 2 (0x2)
T0330 000:280.433 JLINK_ReadMemEx(0x00100380, 0x3C Bytes, Flags = 0x02000000)
T0330 000:280.442   CPU_ReadMem(60 bytes @ 0x00100380)
T0330 000:281.010   Data:  F8 D0 4F F0 00 00 4F F0 00 01 4F F0 00 02 4F F0 ...
T0330 000:281.022 - 0.591ms returns 60 (0x3C)
T0330 000:281.030 JLINK_ReadMemEx(0x00100380, 0x2 Bytes, Flags = 0x02000000)
T0330 000:281.038   CPU_ReadMem(2 bytes @ 0x00100380)
T0330 000:281.306   Data:  F8 D0
T0330 000:281.333 - 0.308ms returns 2 (0x2)
T0330 000:936.881 JLINK_ReadMemEx(0x00100380, 0x3C Bytes, Flags = 0x02000000)
T0330 000:936.922   CPU_ReadMem(60 bytes @ 0x00100380)
T0330 000:937.537   Data:  F8 D0 4F F0 00 00 4F F0 00 01 4F F0 00 02 4F F0 ...
T0330 000:937.550 - 0.672ms returns 60 (0x3C)
T0330 000:937.559 JLINK_ReadMemEx(0x00100380, 0x2 Bytes, Flags = 0x02000000)
T0330 000:937.568   CPU_ReadMem(2 bytes @ 0x00100380)
T0330 000:937.831   Data:  F8 D0
T0330 000:937.843 - 0.287ms returns 2 (0x2)
T0330 000:937.852 JLINK_ReadMemEx(0x00100382, 0x2 Bytes, Flags = 0x02000000)
T0330 000:937.860   CPU_ReadMem(2 bytes @ 0x00100382)
T0330 000:938.114   Data:  4F F0
T0330 000:938.126 - 0.277ms returns 2 (0x2)
T0330 000:938.146 JLINK_ReadMemEx(0x00100382, 0x2 Bytes, Flags = 0x02000000)
T0330 000:938.156   CPU_ReadMem(2 bytes @ 0x00100382)
T0330 000:938.405   Data:  4F F0
T0330 000:938.419 - 0.276ms returns 2 (0x2)
T0330 000:938.429 JLINK_ReadMemEx(0x00100384, 0x3C Bytes, Flags = 0x02000000)
T0330 000:938.439   CPU_ReadMem(60 bytes @ 0x00100384)
T0330 000:939.010   Data:  00 00 4F F0 00 01 4F F0 00 02 4F F0 00 03 4F F0 ...
T0330 000:939.024 - 0.598ms returns 60 (0x3C)
T0330 000:939.034 JLINK_ReadMemEx(0x00100384, 0x2 Bytes, Flags = 0x02000000)
T0330 000:939.045   CPU_ReadMem(2 bytes @ 0x00100384)
T0330 000:939.310   Data:  00 00
T0330 000:939.322 - 0.290ms returns 2 (0x2)
T0330 001:291.297 JLINK_HasError()
T0330 001:291.321 JLINK_ReadReg(R0)
T0330 001:291.633 - 0.323ms returns 0x00000000
T0330 001:291.652 JLINK_ReadReg(R1)
T0330 001:291.660 - 0.011ms returns 0x4100201C
T0330 001:291.668 JLINK_ReadReg(R2)
T0330 001:291.675 - 0.010ms returns 0x0C230001
T0330 001:291.683 JLINK_ReadReg(R3)
T0330 001:291.690 - 0.010ms returns 0x04C11DB7
T0330 001:291.698 JLINK_ReadReg(R4)
T0330 001:291.705 - 0.010ms returns 0x00000000
T0330 001:291.713 JLINK_ReadReg(R5)
T0330 001:291.720 - 0.010ms returns 0x00000000
T0330 001:291.728 JLINK_ReadReg(R6)
T0330 001:291.735 - 0.010ms returns 0x00000000
T0330 001:291.743 JLINK_ReadReg(R7)
T0330 001:291.753 - 0.014ms returns 0x00000000
T0330 001:291.761 JLINK_ReadReg(R8)
T0330 001:291.768 - 0.010ms returns 0x00000000
T0330 001:291.776 JLINK_ReadReg(R9)
T0330 001:291.783 - 0.010ms returns 0x20003384
T0330 001:291.791 JLINK_ReadReg(R10)
T0330 001:291.798 - 0.010ms returns 0x00000000
T0330 001:291.806 JLINK_ReadReg(R11)
T0330 001:291.813 - 0.010ms returns 0x00000000
T0330 001:291.821 JLINK_ReadReg(R12)
T0330 001:291.828 - 0.010ms returns 0x00000000
T0330 001:291.835 JLINK_ReadReg(R13 (SP))
T0330 001:291.843 - 0.010ms returns 0x0021CA38
T0330 001:291.850 JLINK_ReadReg(R14)
T0330 001:291.857 - 0.010ms returns 0xFFFFFFFF
T0330 001:291.865 JLINK_ReadReg(R15 (PC))
T0330 001:291.872 - 0.010ms returns 0x00100374
T0330 001:291.880 JLINK_ReadReg(XPSR)
T0330 001:291.887 - 0.010ms returns 0x01000000
T0330 001:291.895 JLINK_ReadReg(MSP)
T0330 001:291.902 - 0.010ms returns 0x0021CA38
T0330 001:291.910 JLINK_ReadReg(PSP)
T0330 001:291.917 - 0.010ms returns 0x20008000
T0330 001:291.925 JLINK_ReadReg(CFBP)
T0330 001:291.932 - 0.010ms returns 0x00000000
T0330 001:291.940 JLINK_ReadReg(FPSCR)
T0330 001:295.806 - 3.874ms returns 0x00000000
T0330 001:295.821 JLINK_ReadReg(FPS0)
T0330 001:295.831 - 0.013ms returns 0x0B71AE10
T0330 001:295.840 JLINK_ReadReg(FPS1)
T0330 001:295.849 - 0.012ms returns 0x20423D80
T0330 001:295.858 JLINK_ReadReg(FPS2)
T0330 001:295.866 - 0.012ms returns 0x3F000000
T0330 001:295.876 JLINK_ReadReg(FPS3)
T0330 001:295.884 - 0.012ms returns 0xE2C49067
T0330 001:295.894 JLINK_ReadReg(FPS4)
T0330 001:295.902 - 0.012ms returns 0x42100000
T0330 001:295.911 JLINK_ReadReg(FPS5)
T0330 001:295.920 - 0.012ms returns 0x20E38110
T0330 001:295.929 JLINK_ReadReg(FPS6)
T0330 001:295.938 - 0.012ms returns 0xF10914E1
T0330 001:295.947 JLINK_ReadReg(FPS7)
T0330 001:295.955 - 0.012ms returns 0x44F40134
T0330 001:295.965 JLINK_ReadReg(FPS8)
T0330 001:295.973 - 0.012ms returns 0x81CF1538
T0330 001:295.982 JLINK_ReadReg(FPS9)
T0330 001:295.990 - 0.012ms returns 0x20EA90C2
T0330 001:296.000 JLINK_ReadReg(FPS10)
T0330 001:296.008 - 0.012ms returns 0x00095073
T0330 001:296.017 JLINK_ReadReg(FPS11)
T0330 001:296.026 - 0.012ms returns 0x6005612A
T0330 001:296.035 JLINK_ReadReg(FPS12)
T0330 001:296.043 - 0.012ms returns 0x8A350903
T0330 001:296.053 JLINK_ReadReg(FPS13)
T0330 001:296.061 - 0.012ms returns 0x4268B660
T0330 001:296.071 JLINK_ReadReg(FPS14)
T0330 001:296.079 - 0.012ms returns 0x69404080
T0330 001:296.088 JLINK_ReadReg(FPS15)
T0330 001:296.096 - 0.012ms returns 0xE3C28190
T0330 001:296.106 JLINK_ReadReg(FPS16)
T0330 001:296.114 - 0.012ms returns 0x40138E1A
T0330 001:296.123 JLINK_ReadReg(FPS17)
T0330 001:296.132 - 0.012ms returns 0x00C1584A
T0330 001:296.141 JLINK_ReadReg(FPS18)
T0330 001:296.149 - 0.012ms returns 0xB856C0AE
T0330 001:296.158 JLINK_ReadReg(FPS19)
T0330 001:296.167 - 0.012ms returns 0x53565082
T0330 001:296.176 JLINK_ReadReg(FPS20)
T0330 001:296.184 - 0.012ms returns 0x7280C929
T0330 001:296.194 JLINK_ReadReg(FPS21)
T0330 001:296.202 - 0.012ms returns 0x41042608
T0330 001:296.212 JLINK_ReadReg(FPS22)
T0330 001:296.220 - 0.012ms returns 0x37E01613
T0330 001:296.229 JLINK_ReadReg(FPS23)
T0330 001:296.237 - 0.012ms returns 0xBF000002
T0330 001:296.247 JLINK_ReadReg(FPS24)
T0330 001:296.255 - 0.012ms returns 0x086471E1
T0330 001:296.264 JLINK_ReadReg(FPS25)
T0330 001:296.273 - 0.012ms returns 0x12A1335D
T0330 001:296.282 JLINK_ReadReg(FPS26)
T0330 001:296.290 - 0.012ms returns 0xA22CB530
T0330 001:296.299 JLINK_ReadReg(FPS27)
T0330 001:296.308 - 0.012ms returns 0x21411082
T0330 001:296.317 JLINK_ReadReg(FPS28)
T0330 001:296.325 - 0.012ms returns 0x53BC8450
T0330 001:296.335 JLINK_ReadReg(FPS29)
T0330 001:296.343 - 0.012ms returns 0x9CC445CA
T0330 001:296.352 JLINK_ReadReg(FPS30)
T0330 001:296.359 - 0.010ms returns 0x0502166C
T0330 001:296.367 JLINK_ReadReg(FPS31)
T0330 001:296.374 - 0.010ms returns 0x40013980
T0330 001:387.583 JLINK_ReadMemEx(0x00300000, 0x4 Bytes, Flags = 0x02000000)
T0330 001:387.633   CPU_ReadMem(64 bytes @ 0x00300000)
T0330 001:388.331    -- Updating C cache (64 bytes @ 0x00300000)
T0330 001:388.354    -- Read from C cache (4 bytes @ 0x00300000)
T0330 001:388.368   Data:  00 00 02 20
T0330 001:388.381 - 0.802ms returns 4 (0x4)
T0330 001:388.445 JLINK_HasError()
T0330 001:388.458 JLINK_WriteReg(R13 (SP), 0x20020000)
T0330 001:388.470 - 0.016ms returns 0
T0330 001:388.481 JLINK_HasError()
T0330 001:388.490 JLINK_ReadReg(R0)
T0330 001:388.499 - 0.013ms returns 0x00000000
T0330 001:388.509 JLINK_ReadReg(R1)
T0330 001:388.517 - 0.012ms returns 0x4100201C
T0330 001:388.526 JLINK_ReadReg(R2)
T0330 001:388.535 - 0.012ms returns 0x0C230001
T0330 001:388.544 JLINK_ReadReg(R3)
T0330 001:388.552 - 0.012ms returns 0x04C11DB7
T0330 001:388.562 JLINK_ReadReg(R4)
T0330 001:388.570 - 0.012ms returns 0x00000000
T0330 001:388.580 JLINK_ReadReg(R5)
T0330 001:388.588 - 0.012ms returns 0x00000000
T0330 001:388.598 JLINK_ReadReg(R6)
T0330 001:388.605 - 0.010ms returns 0x00000000
T0330 001:388.613 JLINK_ReadReg(R7)
T0330 001:388.620 - 0.010ms returns 0x00000000
T0330 001:388.628 JLINK_ReadReg(R8)
T0330 001:388.635 - 0.010ms returns 0x00000000
T0330 001:388.642 JLINK_ReadReg(R9)
T0330 001:388.649 - 0.010ms returns 0x20003384
T0330 001:388.657 JLINK_ReadReg(R10)
T0330 001:388.664 - 0.010ms returns 0x00000000
T0330 001:388.672 JLINK_ReadReg(R11)
T0330 001:388.679 - 0.010ms returns 0x00000000
T0330 001:388.687 JLINK_ReadReg(R12)
T0330 001:388.693 - 0.010ms returns 0x00000000
T0330 001:388.701 JLINK_ReadReg(R13 (SP))
T0330 001:388.709 - 0.010ms returns 0x20020000
T0330 001:388.716 JLINK_ReadReg(R14)
T0330 001:388.723 - 0.010ms returns 0xFFFFFFFF
T0330 001:388.731 JLINK_ReadReg(R15 (PC))
T0330 001:388.738 - 0.010ms returns 0x00100374
T0330 001:388.746 JLINK_ReadReg(XPSR)
T0330 001:388.753 - 0.010ms returns 0x01000000
T0330 001:388.761 JLINK_ReadReg(MSP)
T0330 001:388.768 - 0.010ms returns 0x20020000
T0330 001:388.776 JLINK_ReadReg(PSP)
T0330 001:388.783 - 0.010ms returns 0x20008000
T0330 001:388.791 JLINK_ReadReg(CFBP)
T0330 001:388.798 - 0.010ms returns 0x00000000
T0330 001:388.806 JLINK_ReadReg(FPSCR)
T0330 001:388.813 - 0.010ms returns 0x00000000
T0330 001:388.821 JLINK_ReadReg(FPS0)
T0330 001:388.827 - 0.010ms returns 0x0B71AE10
T0330 001:388.835 JLINK_ReadReg(FPS1)
T0330 001:388.842 - 0.010ms returns 0x20423D80
T0330 001:388.850 JLINK_ReadReg(FPS2)
T0330 001:388.857 - 0.010ms returns 0x3F000000
T0330 001:388.865 JLINK_ReadReg(FPS3)
T0330 001:388.872 - 0.010ms returns 0xE2C49067
T0330 001:388.879 JLINK_ReadReg(FPS4)
T0330 001:388.886 - 0.010ms returns 0x42100000
T0330 001:388.894 JLINK_ReadReg(FPS5)
T0330 001:388.901 - 0.010ms returns 0x20E38110
T0330 001:388.909 JLINK_ReadReg(FPS6)
T0330 001:388.915 - 0.010ms returns 0xF10914E1
T0330 001:388.923 JLINK_ReadReg(FPS7)
T0330 001:388.930 - 0.010ms returns 0x44F40134
T0330 001:388.938 JLINK_ReadReg(FPS8)
T0330 001:388.945 - 0.010ms returns 0x81CF1538
T0330 001:388.953 JLINK_ReadReg(FPS9)
T0330 001:388.960 - 0.010ms returns 0x20EA90C2
T0330 001:388.967 JLINK_ReadReg(FPS10)
T0330 001:388.974 - 0.010ms returns 0x00095073
T0330 001:388.982 JLINK_ReadReg(FPS11)
T0330 001:388.989 - 0.010ms returns 0x6005612A
T0330 001:388.997 JLINK_ReadReg(FPS12)
T0330 001:389.003 - 0.010ms returns 0x8A350903
T0330 001:389.011 JLINK_ReadReg(FPS13)
T0330 001:389.018 - 0.010ms returns 0x4268B660
T0330 001:389.026 JLINK_ReadReg(FPS14)
T0330 001:389.033 - 0.010ms returns 0x69404080
T0330 001:389.041 JLINK_ReadReg(FPS15)
T0330 001:389.048 - 0.010ms returns 0xE3C28190
T0330 001:389.056 JLINK_ReadReg(FPS16)
T0330 001:389.063 - 0.010ms returns 0x40138E1A
T0330 001:389.070 JLINK_ReadReg(FPS17)
T0330 001:389.077 - 0.010ms returns 0x00C1584A
T0330 001:389.085 JLINK_ReadReg(FPS18)
T0330 001:389.092 - 0.010ms returns 0xB856C0AE
T0330 001:389.100 JLINK_ReadReg(FPS19)
T0330 001:389.107 - 0.010ms returns 0x53565082
T0330 001:389.115 JLINK_ReadReg(FPS20)
T0330 001:389.122 - 0.010ms returns 0x7280C929
T0330 001:389.130 JLINK_ReadReg(FPS21)
T0330 001:389.181 - 0.055ms returns 0x41042608
T0330 001:389.189 JLINK_ReadReg(FPS22)
T0330 001:389.196 - 0.010ms returns 0x37E01613
T0330 001:389.206 JLINK_ReadReg(FPS23)
T0330 001:389.213 - 0.010ms returns 0xBF000002
T0330 001:389.221 JLINK_ReadReg(FPS24)
T0330 001:389.228 - 0.010ms returns 0x086471E1
T0330 001:389.236 JLINK_ReadReg(FPS25)
T0330 001:389.243 - 0.010ms returns 0x12A1335D
T0330 001:389.251 JLINK_ReadReg(FPS26)
T0330 001:389.258 - 0.010ms returns 0xA22CB530
T0330 001:389.266 JLINK_ReadReg(FPS27)
T0330 001:389.272 - 0.010ms returns 0x21411082
T0330 001:389.280 JLINK_ReadReg(FPS28)
T0330 001:389.287 - 0.010ms returns 0x53BC8450
T0330 001:389.295 JLINK_ReadReg(FPS29)
T0330 001:389.302 - 0.010ms returns 0x9CC445CA
T0330 001:389.310 JLINK_ReadReg(FPS30)
T0330 001:389.317 - 0.010ms returns 0x0502166C
T0330 001:389.324 JLINK_ReadReg(FPS31)
T0330 001:389.331 - 0.010ms returns 0x40013980
T0330 001:389.340 JLINK_ReadMemEx(0x00300004, 0x4 Bytes, Flags = 0x02000000)
T0330 001:389.348    -- Read from C cache (4 bytes @ 0x00300004)
T0330 001:389.358   Data:  15 04 30 00
T0330 001:389.368 - 0.032ms returns 4 (0x4)
T0330 001:389.377 JLINK_HasError()
T0330 001:389.385 JLINK_WriteReg(R15 (PC), 0x00300414)
T0330 001:389.392 - 0.010ms returns 0
T0330 001:389.400 JLINK_HasError()
T0330 001:389.408 JLINK_ReadReg(R0)
T0330 001:389.415 - 0.010ms returns 0x00000000
T0330 001:389.423 JLINK_ReadReg(R1)
T0330 001:389.430 - 0.010ms returns 0x4100201C
T0330 001:389.438 JLINK_ReadReg(R2)
T0330 001:389.445 - 0.010ms returns 0x0C230001
T0330 001:389.453 JLINK_ReadReg(R3)
T0330 001:389.459 - 0.010ms returns 0x04C11DB7
T0330 001:389.467 JLINK_ReadReg(R4)
T0330 001:389.474 - 0.010ms returns 0x00000000
T0330 001:389.482 JLINK_ReadReg(R5)
T0330 001:389.489 - 0.010ms returns 0x00000000
T0330 001:389.496 JLINK_ReadReg(R6)
T0330 001:389.503 - 0.010ms returns 0x00000000
T0330 001:389.511 JLINK_ReadReg(R7)
T0330 001:389.518 - 0.010ms returns 0x00000000
T0330 001:389.526 JLINK_ReadReg(R8)
T0330 001:389.533 - 0.010ms returns 0x00000000
T0330 001:389.540 JLINK_ReadReg(R9)
T0330 001:389.547 - 0.010ms returns 0x20003384
T0330 001:389.555 JLINK_ReadReg(R10)
T0330 001:389.562 - 0.010ms returns 0x00000000
T0330 001:389.570 JLINK_ReadReg(R11)
T0330 001:389.576 - 0.010ms returns 0x00000000
T0330 001:389.584 JLINK_ReadReg(R12)
T0330 001:389.591 - 0.010ms returns 0x00000000
T0330 001:389.599 JLINK_ReadReg(R13 (SP))
T0330 001:389.606 - 0.010ms returns 0x20020000
T0330 001:389.614 JLINK_ReadReg(R14)
T0330 001:389.621 - 0.010ms returns 0xFFFFFFFF
T0330 001:389.628 JLINK_ReadReg(R15 (PC))
T0330 001:389.635 - 0.010ms returns 0x00300414
T0330 001:389.643 JLINK_ReadReg(XPSR)
T0330 001:389.650 - 0.010ms returns 0x01000000
T0330 001:389.658 JLINK_ReadReg(MSP)
T0330 001:389.665 - 0.010ms returns 0x20020000
T0330 001:389.673 JLINK_ReadReg(PSP)
T0330 001:389.679 - 0.010ms returns 0x20008000
T0330 001:389.687 JLINK_ReadReg(CFBP)
T0330 001:389.694 - 0.010ms returns 0x00000000
T0330 001:389.702 JLINK_ReadReg(FPSCR)
T0330 001:389.709 - 0.010ms returns 0x00000000
T0330 001:389.717 JLINK_ReadReg(FPS0)
T0330 001:389.724 - 0.010ms returns 0x0B71AE10
T0330 001:389.731 JLINK_ReadReg(FPS1)
T0330 001:389.738 - 0.010ms returns 0x20423D80
T0330 001:389.746 JLINK_ReadReg(FPS2)
T0330 001:389.753 - 0.010ms returns 0x3F000000
T0330 001:389.761 JLINK_ReadReg(FPS3)
T0330 001:389.768 - 0.010ms returns 0xE2C49067
T0330 001:389.775 JLINK_ReadReg(FPS4)
T0330 001:389.782 - 0.010ms returns 0x42100000
T0330 001:389.790 JLINK_ReadReg(FPS5)
T0330 001:389.797 - 0.010ms returns 0x20E38110
T0330 001:389.805 JLINK_ReadReg(FPS6)
T0330 001:389.812 - 0.010ms returns 0xF10914E1
T0330 001:389.819 JLINK_ReadReg(FPS7)
T0330 001:389.826 - 0.010ms returns 0x44F40134
T0330 001:389.834 JLINK_ReadReg(FPS8)
T0330 001:389.841 - 0.010ms returns 0x81CF1538
T0330 001:389.849 JLINK_ReadReg(FPS9)
T0330 001:389.856 - 0.010ms returns 0x20EA90C2
T0330 001:389.864 JLINK_ReadReg(FPS10)
T0330 001:389.871 - 0.010ms returns 0x00095073
T0330 001:389.899 JLINK_ReadReg(FPS11)
T0330 001:389.908 - 0.012ms returns 0x6005612A
T0330 001:389.916 JLINK_ReadReg(FPS12)
T0330 001:389.923 - 0.010ms returns 0x8A350903
T0330 001:389.931 JLINK_ReadReg(FPS13)
T0330 001:389.938 - 0.010ms returns 0x4268B660
T0330 001:389.946 JLINK_ReadReg(FPS14)
T0330 001:389.952 - 0.010ms returns 0x69404080
T0330 001:389.960 JLINK_ReadReg(FPS15)
T0330 001:389.967 - 0.010ms returns 0xE3C28190
T0330 001:389.975 JLINK_ReadReg(FPS16)
T0330 001:389.982 - 0.010ms returns 0x40138E1A
T0330 001:389.989 JLINK_ReadReg(FPS17)
T0330 001:389.996 - 0.010ms returns 0x00C1584A
T0330 001:390.004 JLINK_ReadReg(FPS18)
T0330 001:390.011 - 0.010ms returns 0xB856C0AE
T0330 001:390.019 JLINK_ReadReg(FPS19)
T0330 001:390.026 - 0.010ms returns 0x53565082
T0330 001:390.033 JLINK_ReadReg(FPS20)
T0330 001:390.040 - 0.010ms returns 0x7280C929
T0330 001:390.048 JLINK_ReadReg(FPS21)
T0330 001:390.055 - 0.010ms returns 0x41042608
T0330 001:390.063 JLINK_ReadReg(FPS22)
T0330 001:390.070 - 0.010ms returns 0x37E01613
T0330 001:390.077 JLINK_ReadReg(FPS23)
T0330 001:390.084 - 0.010ms returns 0xBF000002
T0330 001:390.092 JLINK_ReadReg(FPS24)
T0330 001:390.099 - 0.010ms returns 0x086471E1
T0330 001:390.106 JLINK_ReadReg(FPS25)
T0330 001:390.113 - 0.010ms returns 0x12A1335D
T0330 001:390.121 JLINK_ReadReg(FPS26)
T0330 001:390.128 - 0.010ms returns 0xA22CB530
T0330 001:390.136 JLINK_ReadReg(FPS27)
T0330 001:390.143 - 0.010ms returns 0x21411082
T0330 001:390.151 JLINK_ReadReg(FPS28)
T0330 001:390.157 - 0.010ms returns 0x53BC8450
T0330 001:390.165 JLINK_ReadReg(FPS29)
T0330 001:390.172 - 0.010ms returns 0x9CC445CA
T0330 001:390.180 JLINK_ReadReg(FPS30)
T0330 001:390.187 - 0.010ms returns 0x0502166C
T0330 001:390.195 JLINK_ReadReg(FPS31)
T0330 001:390.202 - 0.010ms returns 0x40013980
T0330 001:390.210 JLINK_WriteMemEx(0xE000ED08, 0x00000004 Bytes, Flags = 0x02000000)
T0330 001:390.217   Data:  00 00 30 00
T0330 001:390.232   CPU_WriteMem(4 bytes @ 0xE000ED08)
T0330 001:390.522 - 0.317ms returns 0x4
T4828 001:435.535 JLINK_ReadMemEx(0x00300414, 0x2 Bytes, Flags = 0x02000000)
T4828 001:435.579   CPU_ReadMem(64 bytes @ 0x00300400)
T4828 001:436.226    -- Updating C cache (64 bytes @ 0x00300400)
T4828 001:436.246    -- Read from C cache (2 bytes @ 0x00300414)
T4828 001:436.262   Data:  72 B6
T4828 001:436.275 - 0.746ms returns 2 (0x2)
T4828 001:436.292 JLINK_HasError()
T4828 001:436.309 JLINK_SetBPEx(Addr = 0x003030F0, Type = 0xFFFFFFF2)
T4828 001:436.333 - 0.032ms returns 0x00000001
T4828 001:436.351 JLINK_HasError()
T4828 001:436.367 JLINK_SetBPEx(Addr = 0x00301422, Type = 0xFFFFFFF2)
T4828 001:436.380 - 0.019ms returns 0x00000002
T4828 001:436.391 JLINK_HasError()
T4828 001:436.402 JLINK_SetBPEx(Addr = 0x00301426, Type = 0xFFFFFFF2)
T4828 001:436.412 - 0.015ms returns 0x00000003
T4828 001:436.425 JLINK_HasError()
T4828 001:436.436 JLINK_SetBPEx(Addr = 0x00301438, Type = 0xFFFFFFF2)
T4828 001:436.448 - 0.018ms returns 0x00000004
T4828 001:436.461 JLINK_HasError()
T4828 001:436.475 JLINK_HasError()
T4828 001:436.485 JLINK_Go()
T4828 001:436.496   CPU_WriteMem(4 bytes @ 0xE0002000)
T4828 001:436.800   CPU_WriteMem(4 bytes @ 0xE0002000)
T4828 001:437.071   CPU_WriteMem(4 bytes @ 0xE0002000)
T4828 001:437.368   CPU_WriteMem(4 bytes @ 0xE0002000)
T4828 001:437.659   CPU_ReadMem(4 bytes @ 0xE0001000)
T4828 001:437.932   CPU_WriteMem(4 bytes @ 0xE0002008)
T4828 001:437.945   CPU_WriteMem(4 bytes @ 0xE000200C)
T4828 001:437.956   CPU_WriteMem(4 bytes @ 0xE0002010)
T4828 001:437.969   CPU_WriteMem(4 bytes @ 0xE0002014)
T4828 001:438.831   CPU_WriteMem(4 bytes @ 0xE0001004)
T4828 001:440.035 - 3.560ms
T4828 001:540.704 JLINK_HasError()
T4828 001:540.734 JLINK_IsHalted()
T4828 001:543.232 - 2.513ms returns TRUE
T4828 001:543.258 JLINK_HasError()
T4828 001:543.270 JLINK_Halt()
T4828 001:543.279 - 0.013ms returns 0x00
T4828 001:543.289 JLINK_IsHalted()
T4828 001:543.298 - 0.012ms returns TRUE
T4828 001:543.308 JLINK_IsHalted()
T4828 001:543.317 - 0.015ms returns TRUE
T4828 001:543.332 JLINK_IsHalted()
T4828 001:543.340 - 0.012ms returns TRUE
T4828 001:543.351 JLINK_HasError()
T4828 001:543.362 JLINK_ReadReg(R15 (PC))
T4828 001:543.373 - 0.015ms returns 0x003030F0
T4828 001:543.384 JLINK_ReadReg(XPSR)
T4828 001:543.392 - 0.012ms returns 0x61000000
T4828 001:543.433 JLINK_HasError()
T4828 001:543.451 JLINK_ClrBPEx(BPHandle = 0x00000001)
T4828 001:543.459 - 0.012ms returns 0x00
T4828 001:543.468 JLINK_HasError()
T4828 001:543.476 JLINK_ClrBPEx(BPHandle = 0x00000002)
T4828 001:543.483 - 0.010ms returns 0x00
T4828 001:543.491 JLINK_HasError()
T4828 001:543.498 JLINK_ClrBPEx(BPHandle = 0x00000003)
T4828 001:543.505 - 0.010ms returns 0x00
T4828 001:543.513 JLINK_HasError()
T4828 001:543.521 JLINK_ClrBPEx(BPHandle = 0x00000004)
T4828 001:543.528 - 0.010ms returns 0x00
T4828 001:543.536 JLINK_HasError()
T4828 001:543.543 JLINK_HasError()
T4828 001:543.551 JLINK_ReadMemU32(0xE000ED30, 0x1 Items)
T4828 001:543.564   CPU_ReadMem(4 bytes @ 0xE000ED30)
T4828 001:543.841   Data:  02 00 00 00
T4828 001:543.853 - 0.305ms returns 1 (0x1)
T4828 001:543.862 JLINK_ReadMemU32(0xE0001028, 0x1 Items)
T4828 001:543.871   CPU_ReadMem(4 bytes @ 0xE0001028)
T4828 001:544.127   Data:  00 00 00 00
T4828 001:544.138   Debug reg: DWT_FUNC[0]
T4828 001:544.148 - 0.289ms returns 1 (0x1)
T4828 001:544.157 JLINK_ReadMemU32(0xE0001038, 0x1 Items)
T4828 001:544.165   CPU_ReadMem(4 bytes @ 0xE0001038)
T4828 001:544.419   Data:  00 00 00 00
T4828 001:544.431   Debug reg: DWT_FUNC[1]
T4828 001:544.441 - 0.287ms returns 1 (0x1)
T4828 001:544.488 JLINK_HasError()
T4828 001:544.497 JLINK_ReadReg(R0)
T4828 001:544.505 - 0.014ms returns 0x003030F1
T4828 001:544.516 JLINK_ReadReg(R1)
T4828 001:544.523 - 0.010ms returns 0x200001E4
T4828 001:544.531 JLINK_ReadReg(R2)
T4828 001:544.538 - 0.010ms returns 0x00000000
T4828 001:544.545 JLINK_ReadReg(R3)
T4828 001:544.553 - 0.010ms returns 0x0030312D
T4828 001:544.560 JLINK_ReadReg(R4)
T4828 001:544.567 - 0.010ms returns 0x00303498
T4828 001:544.575 JLINK_ReadReg(R5)
T4828 001:544.582 - 0.010ms returns 0x00303498
T4828 001:544.590 JLINK_ReadReg(R6)
T4828 001:544.597 - 0.010ms returns 0x00000000
T4828 001:544.605 JLINK_ReadReg(R7)
T4828 001:544.612 - 0.010ms returns 0x00000000
T4828 001:544.620 JLINK_ReadReg(R8)
T4828 001:544.626 - 0.010ms returns 0x00000000
T4828 001:544.634 JLINK_ReadReg(R9)
T4828 001:544.641 - 0.010ms returns 0x20003384
T4828 001:544.649 JLINK_ReadReg(R10)
T4828 001:544.656 - 0.010ms returns 0x00000000
T4828 001:544.663 JLINK_ReadReg(R11)
T4828 001:544.670 - 0.010ms returns 0x00000000
T4828 001:544.678 JLINK_ReadReg(R12)
T4828 001:544.685 - 0.010ms returns 0x00000000
T4828 001:544.693 JLINK_ReadReg(R13 (SP))
T4828 001:544.700 - 0.010ms returns 0x20020000
T4828 001:544.708 JLINK_ReadReg(R14)
T4828 001:544.715 - 0.010ms returns 0x00300A75
T4828 001:544.722 JLINK_ReadReg(R15 (PC))
T4828 001:544.729 - 0.010ms returns 0x003030F0
T4828 001:544.737 JLINK_ReadReg(XPSR)
T4828 001:544.744 - 0.010ms returns 0x61000000
T4828 001:544.752 JLINK_ReadReg(MSP)
T4828 001:544.759 - 0.010ms returns 0x20020000
T4828 001:544.767 JLINK_ReadReg(PSP)
T4828 001:544.774 - 0.010ms returns 0x20008000
T4828 001:544.781 JLINK_ReadReg(CFBP)
T4828 001:544.788 - 0.010ms returns 0x00000000
T4828 001:544.796 JLINK_ReadReg(FPSCR)
T4828 001:548.634 - 3.848ms returns 0x00000000
T4828 001:548.651 JLINK_ReadReg(FPS0)
T4828 001:548.659 - 0.012ms returns 0x0B71AE10
T4828 001:548.668 JLINK_ReadReg(FPS1)
T4828 001:548.675 - 0.010ms returns 0x20423D80
T4828 001:548.683 JLINK_ReadReg(FPS2)
T4828 001:548.690 - 0.010ms returns 0x3F000000
T4828 001:548.698 JLINK_ReadReg(FPS3)
T4828 001:548.705 - 0.010ms returns 0xE2C49067
T4828 001:548.713 JLINK_ReadReg(FPS4)
T4828 001:548.720 - 0.010ms returns 0x42100000
T4828 001:548.727 JLINK_ReadReg(FPS5)
T4828 001:548.734 - 0.010ms returns 0x20E38110
T4828 001:548.742 JLINK_ReadReg(FPS6)
T4828 001:548.749 - 0.010ms returns 0xF10914E1
T4828 001:548.757 JLINK_ReadReg(FPS7)
T4828 001:548.766 - 0.013ms returns 0x44F40134
T4828 001:548.775 JLINK_ReadReg(FPS8)
T4828 001:548.782 - 0.010ms returns 0x81CF1538
T4828 001:548.790 JLINK_ReadReg(FPS9)
T4828 001:548.797 - 0.010ms returns 0x20EA90C2
T4828 001:548.805 JLINK_ReadReg(FPS10)
T4828 001:548.812 - 0.010ms returns 0x00095073
T4828 001:548.820 JLINK_ReadReg(FPS11)
T4828 001:548.827 - 0.010ms returns 0x6005612A
T4828 001:548.834 JLINK_ReadReg(FPS12)
T4828 001:548.841 - 0.010ms returns 0x8A350903
T4828 001:548.849 JLINK_ReadReg(FPS13)
T4828 001:548.856 - 0.010ms returns 0x4268B660
T4828 001:548.863 JLINK_ReadReg(FPS14)
T4828 001:548.870 - 0.010ms returns 0x69404080
T4828 001:548.878 JLINK_ReadReg(FPS15)
T4828 001:548.885 - 0.010ms returns 0xE3C28190
T4828 001:548.893 JLINK_ReadReg(FPS16)
T4828 001:548.899 - 0.010ms returns 0x40138E1A
T4828 001:548.907 JLINK_ReadReg(FPS17)
T4828 001:548.914 - 0.010ms returns 0x00C1584A
T4828 001:548.922 JLINK_ReadReg(FPS18)
T4828 001:548.929 - 0.010ms returns 0xB856C0AE
T4828 001:548.936 JLINK_ReadReg(FPS19)
T4828 001:548.943 - 0.010ms returns 0x53565082
T4828 001:548.951 JLINK_ReadReg(FPS20)
T4828 001:548.958 - 0.010ms returns 0x7280C929
T4828 001:548.966 JLINK_ReadReg(FPS21)
T4828 001:548.973 - 0.010ms returns 0x41042608
T4828 001:548.981 JLINK_ReadReg(FPS22)
T4828 001:548.988 - 0.010ms returns 0x37E01613
T4828 001:548.996 JLINK_ReadReg(FPS23)
T4828 001:549.003 - 0.010ms returns 0xBF000002
T4828 001:549.010 JLINK_ReadReg(FPS24)
T4828 001:549.017 - 0.010ms returns 0x086471E1
T4828 001:549.025 JLINK_ReadReg(FPS25)
T4828 001:549.032 - 0.010ms returns 0x12A1335D
T4828 001:549.040 JLINK_ReadReg(FPS26)
T4828 001:549.046 - 0.010ms returns 0xA22CB530
T4828 001:549.054 JLINK_ReadReg(FPS27)
T4828 001:549.061 - 0.010ms returns 0x21411082
T4828 001:549.069 JLINK_ReadReg(FPS28)
T4828 001:549.076 - 0.010ms returns 0x53BC8450
T4828 001:549.083 JLINK_ReadReg(FPS29)
T4828 001:549.090 - 0.010ms returns 0x9CC445CA
T4828 001:549.098 JLINK_ReadReg(FPS30)
T4828 001:549.105 - 0.010ms returns 0x0502166C
T4828 001:549.113 JLINK_ReadReg(FPS31)
T4828 001:549.120 - 0.010ms returns 0x40013980
T0330 001:552.161 JLINK_HasError()
T0330 001:552.177 JLINK_ReadMemU32(0xE0001004, 0x1 Items)
T0330 001:552.189   CPU_ReadMem(4 bytes @ 0xE0001004)
T0330 001:552.464   Data:  65 17 00 00
T0330 001:552.477   Debug reg: DWT_CYCCNT
T0330 001:552.487 - 0.313ms returns 1 (0x1)
T0330 001:554.174 JLINK_ReadMemEx(0x00302FF0, 0x3C Bytes, Flags = 0x02000000)
T0330 001:554.192   CPU_ReadMem(128 bytes @ 0x00302FC0)
T0330 001:555.189    -- Updating C cache (128 bytes @ 0x00302FC0)
T0330 001:555.201    -- Read from C cache (60 bytes @ 0x00302FF0)
T0330 001:555.213   Data:  00 F0 84 F8 0C A0 29 46 00 F0 80 F8 0E A0 21 46 ...
T0330 001:555.223 - 1.052ms returns 60 (0x3C)
T0330 001:555.232 JLINK_ReadMemEx(0x00302FF0, 0x2 Bytes, Flags = 0x02000000)
T0330 001:555.240    -- Read from C cache (2 bytes @ 0x00302FF0)
T0330 001:555.250   Data:  00 F0
T0330 001:555.260 - 0.031ms returns 2 (0x2)
T0330 001:555.269 JLINK_ReadMemEx(0x00302FF2, 0x2 Bytes, Flags = 0x02000000)
T0330 001:555.276    -- Read from C cache (2 bytes @ 0x00302FF2)
T0330 001:555.286   Data:  84 F8
T0330 001:555.296 - 0.030ms returns 2 (0x2)
T0330 001:555.304 JLINK_ReadMemEx(0x00302FF4, 0x3C Bytes, Flags = 0x02000000)
T0330 001:555.312    -- Read from C cache (60 bytes @ 0x00302FF4)
T0330 001:555.322   Data:  0C A0 29 46 00 F0 80 F8 0E A0 21 46 00 F0 7C F8 ...
T0330 001:555.332 - 0.031ms returns 60 (0x3C)
T0330 001:555.340 JLINK_ReadMemEx(0x00302FF4, 0x2 Bytes, Flags = 0x02000000)
T0330 001:555.347    -- Read from C cache (2 bytes @ 0x00302FF4)
T0330 001:555.357   Data:  0C A0
T0330 001:555.367 - 0.030ms returns 2 (0x2)
T0330 001:555.375 JLINK_ReadMemEx(0x00302FF6, 0x2 Bytes, Flags = 0x02000000)
T0330 001:555.382    -- Read from C cache (2 bytes @ 0x00302FF6)
T0330 001:555.392   Data:  29 46
T0330 001:555.402 - 0.030ms returns 2 (0x2)
T0330 001:555.410 JLINK_ReadMemEx(0x00302FF6, 0x2 Bytes, Flags = 0x02000000)
T0330 001:555.419    -- Read from C cache (2 bytes @ 0x00302FF6)
T0330 001:555.430   Data:  29 46
T0330 001:555.441 - 0.033ms returns 2 (0x2)
T0330 001:555.448 JLINK_ReadMemEx(0x00302FF8, 0x3C Bytes, Flags = 0x02000000)
T0330 001:555.456    -- Read from C cache (60 bytes @ 0x00302FF8)
T0330 001:555.466   Data:  00 F0 80 F8 0E A0 21 46 00 F0 7C F8 00 BE FD E7 ...
T0330 001:555.476 - 0.031ms returns 60 (0x3C)
T0330 001:555.484 JLINK_ReadMemEx(0x00302FF8, 0x2 Bytes, Flags = 0x02000000)
T0330 001:555.491    -- Read from C cache (2 bytes @ 0x00302FF8)
T0330 001:555.502   Data:  00 F0
T0330 001:555.511 - 0.030ms returns 2 (0x2)
T0330 001:555.520 JLINK_ReadMemEx(0x00302FF8, 0x3C Bytes, Flags = 0x02000000)
T0330 001:555.527    -- Read from C cache (60 bytes @ 0x00302FF8)
T0330 001:555.537   Data:  00 F0 80 F8 0E A0 21 46 00 F0 7C F8 00 BE FD E7 ...
T0330 001:555.549 - 0.032ms returns 60 (0x3C)
T0330 001:555.557 JLINK_ReadMemEx(0x00302FF8, 0x2 Bytes, Flags = 0x02000000)
T0330 001:555.564    -- Read from C cache (2 bytes @ 0x00302FF8)
T0330 001:555.574   Data:  00 F0
T0330 001:555.584 - 0.030ms returns 2 (0x2)
T0330 001:555.592 JLINK_ReadMemEx(0x00302FFA, 0x2 Bytes, Flags = 0x02000000)
T0330 001:555.599    -- Read from C cache (2 bytes @ 0x00302FFA)
T0330 001:555.609   Data:  80 F8
T0330 001:555.619 - 0.030ms returns 2 (0x2)
T0330 001:555.627 JLINK_ReadMemEx(0x00302FFC, 0x3C Bytes, Flags = 0x02000000)
T0330 001:555.634    -- Read from C cache (60 bytes @ 0x00302FFC)
T0330 001:555.645   Data:  0E A0 21 46 00 F0 7C F8 00 BE FD E7 41 73 73 65 ...
T0330 001:555.655 - 0.031ms returns 60 (0x3C)
T0330 001:555.663 JLINK_ReadMemEx(0x00302FFC, 0x2 Bytes, Flags = 0x02000000)
T0330 001:555.670    -- Read from C cache (2 bytes @ 0x00302FFC)
T0330 001:555.680   Data:  0E A0
T0330 001:555.690 - 0.030ms returns 2 (0x2)
